! This file is writen by Network Analyzer of MultiSIM.
! 
! S-Parameters,  Real/Imag
! 
! Date: December 10, 2004 15:33:54
! 
! Warning: do not modify this file.
! 
! Measurement mode:
# GHz  S  RI  R  50.00000
! FREQ.           Real(S11)       Imag(S11)       Real(S21)       Imag(S21)       Real(S12)       Imag(S12)       Real(S22)       Imag(S22)       
! ===================================================================
1.00000	-9.799091e-001	1.975433e-001	4.212414e-004	2.032864e-003	4.212414e-004	2.032864e-003	-9.799649e-001	1.976739e-001
1.00100	-9.796759e-001	1.986781e-001	4.239506e-004	2.033857e-003	4.239506e-004	2.033857e-003	-9.797322e-001	1.988100e-001
1.00201	-9.794389e-001	1.998248e-001	4.266583e-004	2.034697e-003	4.266583e-004	2.034697e-003	-9.794956e-001	1.999581e-001
1.00301	-9.791980e-001	2.009837e-001	4.293633e-004	2.035379e-003	4.293633e-004	2.035379e-003	-9.792551e-001	2.011184e-001
1.00401	-9.789530e-001	2.021548e-001	4.320644e-004	2.035896e-003	4.320644e-004	2.035896e-003	-9.790105e-001	2.022909e-001
1.00501	-9.787040e-001	2.033384e-001	4.347604e-004	2.036244e-003	4.347604e-004	2.036244e-003	-9.787619e-001	2.034760e-001
1.00602	-9.784507e-001	2.045347e-001	4.374499e-004	2.036416e-003	4.374499e-004	2.036416e-003	-9.785090e-001	2.046738e-001
1.00702	-9.781931e-001	2.057440e-001	4.401314e-004	2.036406e-003	4.401314e-004	2.036406e-003	-9.782518e-001	2.058845e-001
1.00802	-9.779310e-001	2.069664e-001	4.428034e-004	2.036208e-003	4.428034e-004	2.036208e-003	-9.779902e-001	2.071084e-001
1.00902	-9.776645e-001	2.082021e-001	4.454643e-004	2.035815e-003	4.454643e-004	2.035815e-003	-9.777241e-001	2.083457e-001
1.01003	-9.773934e-001	2.094514e-001	4.481125e-004	2.035222e-003	4.481125e-004	2.035222e-003	-9.774534e-001	2.095966e-001
1.01103	-9.771175e-001	2.107145e-001	4.507462e-004	2.034421e-003	4.507462e-004	2.034421e-003	-9.771780e-001	2.108614e-001
1.01203	-9.768368e-001	2.119917e-001	4.533635e-004	2.033404e-003	4.533635e-004	2.033404e-003	-9.768978e-001	2.121402e-001
1.01303	-9.765512e-001	2.132832e-001	4.559625e-004	2.032165e-003	4.559625e-004	2.032165e-003	-9.766126e-001	2.134333e-001
1.01404	-9.762605e-001	2.145892e-001	4.585410e-004	2.030696e-003	4.585410e-004	2.030696e-003	-9.763223e-001	2.147410e-001
1.01504	-9.759646e-001	2.159100e-001	4.610970e-004	2.028990e-003	4.610970e-004	2.028990e-003	-9.760269e-001	2.160635e-001
1.01604	-9.756634e-001	2.172458e-001	4.636282e-004	2.027037e-003	4.636282e-004	2.027037e-003	-9.757262e-001	2.174011e-001
1.01704	-9.753568e-001	2.185969e-001	4.661321e-004	2.024830e-003	4.661321e-004	2.024830e-003	-9.754201e-001	2.187540e-001
1.01805	-9.750446e-001	2.199637e-001	4.686063e-004	2.022360e-003	4.686063e-004	2.022360e-003	-9.751084e-001	2.201225e-001
1.01905	-9.747267e-001	2.213463e-001	4.710480e-004	2.019619e-003	4.710480e-004	2.019619e-003	-9.747910e-001	2.215070e-001
1.02005	-9.744030e-001	2.227450e-001	4.734546e-004	2.016596e-003	4.734546e-004	2.016596e-003	-9.744677e-001	2.229076e-001
1.02105	-9.740733e-001	2.241602e-001	4.758230e-004	2.013283e-003	4.758230e-004	2.013283e-003	-9.741385e-001	2.243247e-001
1.02206	-9.737374e-001	2.255921e-001	4.781501e-004	2.009670e-003	4.781501e-004	2.009670e-003	-9.738031e-001	2.257585e-001
1.02306	-9.733953e-001	2.270410e-001	4.804328e-004	2.005746e-003	4.804328e-004	2.005746e-003	-9.734615e-001	2.272095e-001
1.02406	-9.730467e-001	2.285073e-001	4.826676e-004	2.001502e-003	4.826676e-004	2.001502e-003	-9.731134e-001	2.286778e-001
1.02506	-9.726915e-001	2.299913e-001	4.848509e-004	1.996926e-003	4.848509e-004	1.996926e-003	-9.727587e-001	2.301639e-001
1.02607	-9.723295e-001	2.314933e-001	4.869790e-004	1.992007e-003	4.869790e-004	1.992007e-003	-9.723972e-001	2.316680e-001
1.02707	-9.719605e-001	2.330136e-001	4.890479e-004	1.986734e-003	4.890479e-004	1.986734e-003	-9.720288e-001	2.331904e-001
1.02807	-9.715845e-001	2.345526e-001	4.910535e-004	1.981094e-003	4.910535e-004	1.981094e-003	-9.716533e-001	2.347316e-001
1.02907	-9.712011e-001	2.361107e-001	4.929913e-004	1.975076e-003	4.929913e-004	1.975076e-003	-9.712704e-001	2.362920e-001
1.03008	-9.708101e-001	2.376882e-001	4.948568e-004	1.968666e-003	4.948568e-004	1.968666e-003	-9.708800e-001	2.378717e-001
1.03108	-9.704115e-001	2.392855e-001	4.966452e-004	1.961853e-003	4.966452e-004	1.961853e-003	-9.704819e-001	2.394713e-001
1.03208	-9.700049e-001	2.409029e-001	4.983513e-004	1.954621e-003	4.983513e-004	1.954621e-003	-9.700759e-001	2.410911e-001
1.03308	-9.695902e-001	2.425409e-001	4.999699e-004	1.946957e-003	4.999699e-004	1.946957e-003	-9.696618e-001	2.427316e-001
1.03409	-9.691672e-001	2.441999e-001	5.014954e-004	1.938847e-003	5.014954e-004	1.938847e-003	-9.692393e-001	2.443930e-001
1.03509	-9.687356e-001	2.458803e-001	5.029218e-004	1.930276e-003	5.029218e-004	1.930276e-003	-9.688083e-001	2.460759e-001
1.03609	-9.682951e-001	2.475825e-001	5.042430e-004	1.921228e-003	5.042430e-004	1.921228e-003	-9.683684e-001	2.477807e-001
1.03709	-9.678456e-001	2.493069e-001	5.054526e-004	1.911687e-003	5.054526e-004	1.911687e-003	-9.679195e-001	2.495077e-001
1.03810	-9.673868e-001	2.510541e-001	5.065436e-004	1.901637e-003	5.065436e-004	1.901637e-003	-9.674613e-001	2.512576e-001
1.03910	-9.669184e-001	2.528244e-001	5.075090e-004	1.891062e-003	5.075090e-004	1.891062e-003	-9.669935e-001	2.530306e-001
1.04010	-9.664402e-001	2.546184e-001	5.083412e-004	1.879942e-003	5.083412e-004	1.879942e-003	-9.665158e-001	2.548274e-001
1.04110	-9.659518e-001	2.564365e-001	5.090323e-004	1.868261e-003	5.090323e-004	1.868261e-003	-9.660281e-001	2.566484e-001
1.04211	-9.654531e-001	2.582793e-001	5.095740e-004	1.856000e-003	5.095740e-004	1.856000e-003	-9.655299e-001	2.584941e-001
1.04311	-9.649436e-001	2.601472e-001	5.099576e-004	1.843140e-003	5.099576e-004	1.843140e-003	-9.650211e-001	2.603650e-001
1.04411	-9.644230e-001	2.620408e-001	5.101739e-004	1.829660e-003	5.101739e-004	1.829660e-003	-9.645011e-001	2.622616e-001
1.04511	-9.638911e-001	2.639607e-001	5.102134e-004	1.815540e-003	5.102134e-004	1.815540e-003	-9.639699e-001	2.641846e-001
1.04612	-9.633476e-001	2.659073e-001	5.100659e-004	1.800760e-003	5.100659e-004	1.800760e-003	-9.634270e-001	2.661344e-001
1.04712	-9.627920e-001	2.678814e-001	5.097208e-004	1.785296e-003	5.097208e-004	1.785296e-003	-9.628720e-001	2.681118e-001
1.04812	-9.622239e-001	2.698834e-001	5.091670e-004	1.769128e-003	5.091670e-004	1.769128e-003	-9.623046e-001	2.701171e-001
1.04912	-9.616431e-001	2.719141e-001	5.083927e-004	1.752232e-003	5.083927e-004	1.752232e-003	-9.617245e-001	2.721512e-001
1.05013	-9.610491e-001	2.739740e-001	5.073858e-004	1.734583e-003	5.073858e-004	1.734583e-003	-9.611311e-001	2.742146e-001
1.05113	-9.604416e-001	2.760638e-001	5.061334e-004	1.716158e-003	5.061334e-004	1.716158e-003	-9.605242e-001	2.763080e-001
1.05213	-9.598200e-001	2.781842e-001	5.046218e-004	1.696931e-003	5.046218e-004	1.696931e-003	-9.599033e-001	2.784320e-001
1.05313	-9.591840e-001	2.803359e-001	5.028369e-004	1.676876e-003	5.028369e-004	1.676876e-003	-9.592680e-001	2.805874e-001
1.05414	-9.585331e-001	2.825195e-001	5.007638e-004	1.655966e-003	5.007638e-004	1.655966e-003	-9.586178e-001	2.827749e-001
1.05514	-9.578668e-001	2.847359e-001	4.983867e-004	1.634174e-003	4.983867e-004	1.634174e-003	-9.579522e-001	2.849952e-001
1.05614	-9.571847e-001	2.869858e-001	4.956894e-004	1.611472e-003	4.956894e-004	1.611472e-003	-9.572707e-001	2.872491e-001
1.05714	-9.564861e-001	2.892700e-001	4.926546e-004	1.587831e-003	4.926546e-004	1.587831e-003	-9.565729e-001	2.895374e-001
1.05815	-9.557706e-001	2.915893e-001	4.892642e-004	1.563220e-003	4.892642e-004	1.563220e-003	-9.558581e-001	2.918609e-001
1.05915	-9.550377e-001	2.939445e-001	4.854992e-004	1.537609e-003	4.854992e-004	1.537609e-003	-9.551258e-001	2.942205e-001
1.06015	-9.542866e-001	2.963365e-001	4.813397e-004	1.510967e-003	4.813397e-004	1.510967e-003	-9.543755e-001	2.966170e-001
1.06115	-9.535169e-001	2.987663e-001	4.767649e-004	1.483262e-003	4.767649e-004	1.483262e-003	-9.536064e-001	2.990513e-001
1.06216	-9.527278e-001	3.012347e-001	4.717529e-004	1.454461e-003	4.717529e-004	1.454461e-003	-9.528181e-001	3.015243e-001
1.06316	-9.519188e-001	3.037427e-001	4.662808e-004	1.424530e-003	4.662808e-004	1.424530e-003	-9.520098e-001	3.040371e-001
1.06416	-9.510890e-001	3.062913e-001	4.603247e-004	1.393435e-003	4.603247e-004	1.393435e-003	-9.511807e-001	3.065907e-001
1.06516	-9.502379e-001	3.088816e-001	4.538593e-004	1.361142e-003	4.538593e-004	1.361142e-003	-9.503303e-001	3.091860e-001
1.06617	-9.493646e-001	3.115145e-001	4.468584e-004	1.327613e-003	4.468584e-004	1.327613e-003	-9.494577e-001	3.118241e-001
1.06717	-9.484683e-001	3.141913e-001	4.392944e-004	1.292814e-003	4.392944e-004	1.292814e-003	-9.485622e-001	3.145061e-001
1.06817	-9.475482e-001	3.169129e-001	4.311385e-004	1.256707e-003	4.311385e-004	1.256707e-003	-9.476428e-001	3.172333e-001
1.06917	-9.466035e-001	3.196807e-001	4.223606e-004	1.219256e-003	4.223606e-004	1.219256e-003	-9.466988e-001	3.200067e-001
1.07018	-9.456332e-001	3.224959e-001	4.129293e-004	1.180422e-003	4.129293e-004	1.180422e-003	-9.457292e-001	3.228276e-001
1.07118	-9.446363e-001	3.253596e-001	4.028116e-004	1.140169e-003	4.028116e-004	1.140169e-003	-9.447331e-001	3.256973e-001
1.07218	-9.436120e-001	3.282733e-001	3.919734e-004	1.098457e-003	3.919734e-004	1.098457e-003	-9.437094e-001	3.286171e-001
1.07318	-9.425590e-001	3.312384e-001	3.803788e-004	1.055248e-003	3.803788e-004	1.055248e-003	-9.426572e-001	3.315884e-001
1.07419	-9.414764e-001	3.342561e-001	3.679908e-004	1.010506e-003	3.679908e-004	1.010506e-003	-9.415753e-001	3.346126e-001
1.07519	-9.403629e-001	3.373280e-001	3.547705e-004	9.641909e-004	3.547705e-004	9.641909e-004	-9.404625e-001	3.376912e-001
1.07619	-9.392174e-001	3.404557e-001	3.406778e-004	9.162667e-004	3.406778e-004	9.162667e-004	-9.393177e-001	3.408258e-001
1.07719	-9.380385e-001	3.436407e-001	3.256709e-004	8.666967e-004	3.256709e-004	8.666967e-004	-9.381395e-001	3.440178e-001
1.07820	-9.368250e-001	3.468847e-001	3.097066e-004	8.154453e-004	3.097066e-004	8.154453e-004	-9.369267e-001	3.472691e-001
1.07920	-9.355754e-001	3.501893e-001	2.927403e-004	7.624783e-004	2.927403e-004	7.624783e-004	-9.356777e-001	3.505813e-001
1.08020	-9.342882e-001	3.535565e-001	2.747257e-004	7.077631e-004	2.747257e-004	7.077631e-004	-9.343912e-001	3.539562e-001
1.08120	-9.329618e-001	3.569881e-001	2.556154e-004	6.512693e-004	2.556154e-004	6.512693e-004	-9.330654e-001	3.573958e-001
1.08221	-9.315947e-001	3.604859e-001	2.353606e-004	5.929689e-004	2.353606e-004	5.929689e-004	-9.316989e-001	3.609019e-001
1.08321	-9.301850e-001	3.640521e-001	2.139115e-004	5.328371e-004	2.139115e-004	5.328371e-004	-9.302898e-001	3.644766e-001
1.08421	-9.287308e-001	3.676888e-001	1.912171e-004	4.708529e-004	1.912171e-004	4.708529e-004	-9.288363e-001	3.681220e-001
1.08521	-9.272304e-001	3.713980e-001	1.672258e-004	4.069996e-004	1.672258e-004	4.069996e-004	-9.273364e-001	3.718404e-001
1.08622	-9.256815e-001	3.751823e-001	1.418856e-004	3.412657e-004	1.418856e-004	3.412657e-004	-9.257880e-001	3.756341e-001
1.08722	-9.240820e-001	3.790439e-001	1.151440e-004	2.736460e-004	1.151440e-004	2.736460e-004	-9.241890e-001	3.795054e-001
1.08822	-9.224296e-001	3.829854e-001	8.694905e-005	2.041424e-004	8.694905e-005	2.041424e-004	-9.225371e-001	3.834569e-001
1.08922	-9.207218e-001	3.870093e-001	5.724940e-005	1.327654e-004	5.724940e-005	1.327654e-004	-9.208297e-001	3.874913e-001
1.09023	-9.189561e-001	3.911185e-001	2.599508e-005	5.953507e-005	2.599508e-005	5.953507e-005	-9.190644e-001	3.916113e-001
1.09123	-9.171296e-001	3.953158e-001	-6.861799e-006	-1.551698e-005	-6.861799e-006	-1.551698e-005	-9.172382e-001	3.958198e-001
1.09223	-9.152394e-001	3.996042e-001	-4.136614e-005	-9.234604e-005	-4.136614e-005	-9.234604e-005	-9.153484e-001	4.001198e-001
1.09323	-9.132825e-001	4.039869e-001	-7.755879e-005	-1.708922e-004	-7.755879e-005	-1.708922e-004	-9.133917e-001	4.045145e-001
1.09424	-9.112554e-001	4.084672e-001	-1.154752e-004	-2.510779e-004	-1.154752e-004	-2.510779e-004	-9.113648e-001	4.090073e-001
1.09524	-9.091547e-001	4.130486e-001	-1.551441e-004	-3.328054e-004	-1.551441e-004	-3.328054e-004	-9.092642e-001	4.136016e-001
1.09624	-9.069765e-001	4.177346e-001	-1.965851e-004	-4.159538e-004	-1.965851e-004	-4.159538e-004	-9.070860e-001	4.183011e-001
1.09724	-9.047168e-001	4.225292e-001	-2.398071e-004	-5.003750e-004	-2.398071e-004	-5.003750e-004	-9.048263e-001	4.231097e-001
1.09825	-9.023713e-001	4.274363e-001	-2.848052e-004	-5.858905e-004	-2.848052e-004	-5.858905e-004	-9.024806e-001	4.280314e-001
1.09925	-8.999354e-001	4.324603e-001	-3.315578e-004	-6.722860e-004	-3.315578e-004	-6.722860e-004	-9.000444e-001	4.330705e-001
1.10025	-8.974040e-001	4.376055e-001	-3.800223e-004	-7.593068e-004	-3.800223e-004	-7.593068e-004	-8.975127e-001	4.382315e-001
1.10125	-8.947720e-001	4.428767e-001	-4.301312e-004	-8.466511e-004	-4.301312e-004	-8.466511e-004	-8.948802e-001	4.435192e-001
1.10226	-8.920335e-001	4.482789e-001	-4.817861e-004	-9.339636e-004	-4.817861e-004	-9.339636e-004	-8.921411e-001	4.489385e-001
1.10326	-8.891824e-001	4.538173e-001	-5.348512e-004	-1.020827e-003	-5.348512e-004	-1.020827e-003	-8.892892e-001	4.544948e-001
1.10426	-8.862120e-001	4.594974e-001	-5.891461e-004	-1.106753e-003	-5.891461e-004	-1.106753e-003	-8.863179e-001	4.601936e-001
1.10526	-8.831154e-001	4.653251e-001	-6.444353e-004	-1.191173e-003	-6.444353e-004	-1.191173e-003	-8.832201e-001	4.660409e-001
1.10627	-8.798846e-001	4.713066e-001	-7.004179e-004	-1.273421e-003	-7.004179e-004	-1.273421e-003	-8.799880e-001	4.720429e-001
1.10727	-8.765113e-001	4.774486e-001	-7.567136e-004	-1.352727e-003	-7.567136e-004	-1.352727e-003	-8.766132e-001	4.782062e-001
1.10827	-8.729866e-001	4.837580e-001	-8.128463e-004	-1.428194e-003	-8.128463e-004	-1.428194e-003	-8.730866e-001	4.845380e-001
1.10927	-8.693005e-001	4.902421e-001	-8.682246e-004	-1.498783e-003	-8.682246e-004	-1.498783e-003	-8.693983e-001	4.910457e-001
1.11028	-8.654423e-001	4.969090e-001	-9.221178e-004	-1.563288e-003	-9.221178e-004	-1.563288e-003	-8.655377e-001	4.977373e-001
1.11128	-8.614003e-001	5.037670e-001	-9.736270e-004	-1.620313e-003	-9.736270e-004	-1.620313e-003	-8.614929e-001	5.046213e-001
1.11228	-8.571619e-001	5.108251e-001	-1.021650e-003	-1.668242e-003	-1.021650e-003	-1.668242e-003	-8.572513e-001	5.117067e-001
1.11328	-8.527129e-001	5.180928e-001	-1.064840e-003	-1.705201e-003	-1.064840e-003	-1.705201e-003	-8.527987e-001	5.190031e-001
1.11429	-8.480383e-001	5.255803e-001	-1.101551e-003	-1.729025e-003	-1.101551e-003	-1.729025e-003	-8.481199e-001	5.265210e-001
1.11529	-8.431210e-001	5.332986e-001	-1.129776e-003	-1.737201e-003	-1.129776e-003	-1.737201e-003	-8.431980e-001	5.342713e-001
1.11629	-8.379426e-001	5.412593e-001	-1.147069e-003	-1.726824e-003	-1.147069e-003	-1.726824e-003	-8.380142e-001	5.422659e-001
1.11729	-8.324824e-001	5.494751e-001	-1.150448e-003	-1.694524e-003	-1.150448e-003	-1.694524e-003	-8.325481e-001	5.505175e-001
1.11830	-8.267179e-001	5.579594e-001	-1.136276e-003	-1.636394e-003	-1.136276e-003	-1.636394e-003	-8.267768e-001	5.590397e-001
1.11930	-8.206237e-001	5.667267e-001	-1.100115e-003	-1.547906e-003	-1.100115e-003	-1.547906e-003	-8.206748e-001	5.678473e-001
1.12030	-8.141716e-001	5.757927e-001	-1.036541e-003	-1.423799e-003	-1.036541e-003	-1.423799e-003	-8.142140e-001	5.769562e-001
1.12130	-8.073300e-001	5.851743e-001	-9.389143e-004	-1.257968e-003	-9.389143e-004	-1.257968e-003	-8.073625e-001	5.863833e-001
1.12231	-8.000634e-001	5.948896e-001	-7.990914e-004	-1.043312e-003	-7.990914e-004	-1.043312e-003	-8.000848e-001	5.961474e-001
1.12331	-7.923320e-001	6.049586e-001	-6.070593e-004	-7.715791e-004	-6.070593e-004	-7.715791e-004	-7.923405e-001	6.062684e-001
1.12431	-7.840902e-001	6.154026e-001	-3.504730e-004	-4.331623e-004	-3.504730e-004	-4.331623e-004	-7.840843e-001	6.167680e-001
1.12531	-7.752866e-001	6.262448e-001	-1.406294e-005	-1.688055e-005	-1.406294e-005	-1.688055e-005	-7.752642e-001	6.276700e-001
1.12632	-7.658621e-001	6.375105e-001	4.211256e-004	4.902847e-004	4.211256e-004	4.902847e-004	-7.658208e-001	6.390000e-001
1.12732	-7.557488e-001	6.492272e-001	9.787171e-004	1.103489e-003	9.787171e-004	1.103489e-003	-7.556859e-001	6.507859e-001
1.12832	-7.448680e-001	6.614246e-001	1.688288e-003	1.840362e-003	1.688288e-003	1.840362e-003	-7.447805e-001	6.630582e-001
1.12932	-7.331284e-001	6.741353e-001	2.587055e-003	2.721383e-003	2.587055e-003	2.721383e-003	-7.330122e-001	6.758501e-001
1.13033	-7.204223e-001	6.873944e-001	3.722099e-003	3.770280e-003	3.722099e-003	3.770280e-003	-7.202732e-001	6.891973e-001
1.13133	-7.066228e-001	7.012397e-001	5.153357e-003	5.014423e-003	5.153357e-003	5.014423e-003	-7.064353e-001	7.031388e-001
1.13233	-6.915782e-001	7.157121e-001	6.957636e-003	6.485162e-003	6.957636e-003	6.485162e-003	-6.913460e-001	7.177164e-001
1.13333	-6.751058e-001	7.308544e-001	9.234099e-003	8.218005e-003	9.234099e-003	8.218005e-003	-6.748211e-001	7.329742e-001
1.13434	-6.569833e-001	7.467112e-001	1.211182e-002	1.025244e-002	1.211182e-002	1.025244e-002	-6.566365e-001	7.489584e-001
1.13534	-6.369367e-001	7.633266e-001	1.576034e-002	1.263101e-002	1.576034e-002	1.263101e-002	-6.365160e-001	7.657148e-001
1.13634	-6.146240e-001	7.807411e-001	2.040450e-002	1.539708e-002	2.040450e-002	1.539708e-002	-6.141148e-001	7.832859e-001
1.13734	-5.896126e-001	7.989850e-001	2.634581e-002	1.858984e-002	2.634581e-002	1.858984e-002	-5.889960e-001	8.017046e-001
1.13835	-5.613462e-001	8.180664e-001	3.399323e-002	2.223445e-002	3.399323e-002	2.223445e-002	-5.605981e-001	8.209821e-001
1.13935	-5.290978e-001	8.379500e-001	4.390849e-002	2.632259e-002	4.390849e-002	2.632259e-002	-5.281868e-001	8.410866e-001
1.14035	-4.919007e-001	8.585157e-001	5.687316e-002	3.077465e-002	5.687316e-002	3.077465e-002	-4.907847e-001	8.619017e-001
1.14135	-4.484464e-001	8.794811e-001	7.398849e-002	3.536566e-002	7.398849e-002	3.536566e-002	-4.470682e-001	8.831493e-001
1.14236	-3.969356e-001	9.002494e-001	9.682268e-002	3.957801e-002	9.682268e-002	3.957801e-002	-3.952161e-001	9.042358e-001
1.14336	-3.348692e-001	9.196054e-001	1.276192e-001	4.230280e-002	1.276192e-001	4.230280e-002	-3.326956e-001	9.239467e-001
1.14436	-2.587901e-001	9.350925e-001	1.695544e-001	4.122221e-002	1.695544e-001	4.122221e-002	-2.559986e-001	9.398173e-001
1.14536	-1.641202e-001	9.417170e-001	2.269027e-001	3.151816e-002	2.269027e-001	3.151816e-002	-1.604692e-001	9.468242e-001
1.14637	-4.573662e-002	9.293123e-001	3.044620e-001	3.232983e-003	3.044620e-001	3.232983e-003	-4.087124e-002	9.347160e-001
1.14737	9.834678e-002	8.778280e-001	4.038647e-001	-6.346038e-002	4.038647e-001	-6.346038e-002	1.049155e-001	8.832285e-001
1.14837	2.535555e-001	7.530997e-001	5.100915e-001	-2.025286e-001	5.100915e-001	-2.025286e-001	2.623445e-001	7.577307e-001
1.14937	3.591346e-001	5.234153e-001	5.616442e-001	-4.454755e-001	5.616442e-001	-4.454755e-001	3.701541e-001	5.258076e-001
1.15038	3.092736e-001	2.365165e-001	4.514709e-001	-7.438705e-001	4.514709e-001	-7.438705e-001	3.210653e-001	2.351365e-001
1.15138	9.539719e-002	5.290240e-002	1.699845e-001	-9.354133e-001	1.699845e-001	-9.354133e-001	1.054844e-001	4.797792e-002
1.15238	-1.317473e-001	4.486463e-002	-1.318919e-001	-9.458035e-001	-1.318919e-001	-9.458035e-001	-1.245621e-001	3.830422e-002
1.15338	-2.711358e-001	1.316164e-001	-3.526989e-001	-8.545196e-001	-3.526989e-001	-8.545196e-001	-2.664557e-001	1.250030e-001
1.15439	-3.268100e-001	2.335436e-001	-4.964406e-001	-7.398089e-001	-4.964406e-001	-7.398089e-001	-3.238334e-001	2.275495e-001
1.15539	-3.292933e-001	3.191636e-001	-5.935576e-001	-6.312053e-001	-5.935576e-001	-6.312053e-001	-3.273862e-001	3.139434e-001
1.15639	-3.012952e-001	3.815845e-001	-6.661866e-001	-5.331016e-001	-6.661866e-001	-5.331016e-001	-3.000417e-001	3.770999e-001
1.15739	-2.561569e-001	4.212565e-001	-7.263104e-001	-4.421552e-001	-7.263104e-001	-4.421552e-001	-2.552929e-001	4.174157e-001
1.15840	-2.018048e-001	4.398449e-001	-7.794379e-001	-3.536342e-001	-7.794379e-001	-3.536342e-001	-2.011590e-001	4.365500e-001
